
T15C8 000:002 SEGGER J-Link V6.16c Log File (0000ms, 0002ms total)
T15C8 000:002 DLL Compiled: Jun 16 2017 18:14:49 (0000ms, 0002ms total)
T15C8 000:002 Logging started @ 2018-05-15 09:38 (0000ms, 0002ms total)
T15C8 000:002 JLINK_SetWarnOutHandler(...) (0000ms, 0002ms total)
T15C8 000:002 JLINK_OpenEx(...)
Firmware: J-Link OB-SAM3U128 V3 compiled Sep 21 2017 14:14:50
Hardware: V3.00
S/N: 483028098WEBSRV Webserver running on local port 19080 (0008ms, 0010ms total)
T15C8 000:002   returns O.K. (0008ms, 0010ms total)
T15C8 000:010 JLINK_GetEmuCaps()  returns 0xB9FA5A37 (0000ms, 0010ms total)
T15C8 000:010 JLINK_TIF_GetAvailable(...) (0000ms, 0010ms total)
T15C8 000:010 JLINK_SetErrorOutHandler(...) (0000ms, 0010ms total)
T15C8 000:010 JLINK_ExecCommand("ProjectFile = "C:\AmbiqMicro\AmbiqSuite\boards\apollo2_evb\examples\variometer\keil\JLinkSettings.ini"", ...). Device "AMAPH1KK-KBR" selected.  returns 0x00 (0087ms, 0097ms total)
T15C8 000:097 JLINK_ExecCommand("Device = AMAPH1KK-KBR", ...). Device "AMAPH1KK-KBR" selected.  returns 0x00 (0003ms, 0100ms total)
T15C8 000:100 JLINK_ExecCommand("DisableConnectionTimeout", ...).   returns 0x01 (0000ms, 0100ms total)
T15C8 000:100 JLINK_GetHardwareVersion()  returns 0x7530 (0000ms, 0100ms total)
T15C8 000:100 JLINK_GetDLLVersion()  returns 61603 (0000ms, 0100ms total)
T15C8 000:100 JLINK_GetFirmwareString(...) (0000ms, 0100ms total)
T15C8 000:100 JLINK_GetDLLVersion()  returns 61603 (0000ms, 0100ms total)
T15C8 000:100 JLINK_GetCompileDateTime() (0000ms, 0100ms total)
T15C8 000:100 JLINK_GetFirmwareString(...) (0000ms, 0100ms total)
T15C8 000:100 JLINK_GetHardwareVersion()  returns 0x7530 (0000ms, 0100ms total)
T15C8 000:100 JLINK_TIF_Select(JLINKARM_TIF_SWD)  returns 0x00 (0000ms, 0100ms total)
T15C8 000:100 JLINK_SetSpeed(5000) (0001ms, 0101ms total)
T15C8 000:101 JLINK_GetId() >0x10B TIF>Found SW-DP with ID 0x2BA01477 >0x0D TIF> >0x28 TIF> >0x0D TIF> >0x28 TIF> >0x0D TIF> >0x28 TIF> >0x0D TIF> >0x28 TIF> >0x0D TIF> >0x21 TIF> >0x0D TIF> >0x28 TIF>Scanning APs, stopping at first AHB-AP found. >0x0D TIF> >0x28 TIF> >0x0D TIF> >0x21 TIF> >0x0D TIF> >0x21 TIF>AP[0] IDR: 0x24770011 (AHB-AP) >0x0D TIF> >0x28 TIF> >0x0D TIF> >0x21 TIF> >0x0D TIF> >0x21 TIF>AHB-AP ROM: 0xE00FF000 (Base addr. of first ROM table) >0x0D TIF> >0x28 TIF> >0x0D TIF> >0x28 TIF>
 >0x0D TIF> >0x28 TIF> >0x0D TIF> >0x21 TIF> >0x0D TIF> >0x21 TIF> >0x0D TIF> >0x28 TIF> >0x0D TIF> >0x21 TIF> >0x0D TIF> >0x21 TIF>CPUID reg: 0x410FC241. Implementer code: 0x41 (ARM)Found Cortex-M4 r0p1, Little endian. -- CPU_ReadMem(4 bytes @ 0xE000EDF0) -- CPU_WriteMem(4 bytes @ 0xE000EDF0) -- CPU_ReadMem(4 bytes @ 0xE0002000)FPUnit: 6 code (BP) slots and 2 literal slots -- CPU_ReadMem(4 bytes @ 0xE000EDFC) -- CPU_WriteMem(4 bytes @ 0xE000EDFC) -- CPU_ReadMem(4 bytes @ 0xE0001000)
 -- CPU_WriteMem(4 bytes @ 0xE0001000) -- CPU_ReadMem(4 bytes @ 0xE000ED88) -- CPU_WriteMem(4 bytes @ 0xE000ED88) -- CPU_ReadMem(4 bytes @ 0xE000ED88) -- CPU_WriteMem(4 bytes @ 0xE000ED88)CoreSight components:ROMTbl[0] @ E00FF000 -- CPU_ReadMem(16 bytes @ 0xE00FF000) -- CPU_ReadMem(16 bytes @ 0xE000EFF0) -- CPU_ReadMem(16 bytes @ 0xE000EFE0)ROMTbl[0][0]: E000E000, CID: B105E00D, PID: 000BB00C SCS -- CPU_ReadMem(16 bytes @ 0xE0001FF0) -- CPU_ReadMem(16 bytes @ 0xE0001FE0)
ROMTbl[0][1]: E0001000, CID: B105E00D, PID: 003BB002 DWT -- CPU_ReadMem(16 bytes @ 0xE0002FF0) -- CPU_ReadMem(16 bytes @ 0xE0002FE0)ROMTbl[0][2]: E0002000, CID: B105E00D, PID: 002BB003 FPB -- CPU_ReadMem(16 bytes @ 0xE0000FF0) -- CPU_ReadMem(16 bytes @ 0xE0000FE0)ROMTbl[0][3]: E0000000, CID: B105E00D, PID: 003BB001 ITM -- CPU_ReadMem(16 bytes @ 0xE00FF010) -- CPU_ReadMem(16 bytes @ 0xE0040FF0) -- CPU_ReadMem(16 bytes @ 0xE0040FE0)ROMTbl[0][4]: E0040000, CID: B105900D, PID: 000BB9A1 TPIU >0x0D TIF>
 >0x21 TIF>  returns 0x2BA01477 (0018ms, 0119ms total)
T15C8 000:119 JLINK_GetDLLVersion()  returns 61603 (0000ms, 0119ms total)
T15C8 000:119 JLINK_CORE_GetFound()  returns 0xE0000FF (0000ms, 0119ms total)
T15C8 000:119 JLINK_GetDebugInfo(0x100 = JLINKARM_ROM_TABLE_ADDR_INDEX) -- Value=0xE00FF000  returns 0x00 (0000ms, 0119ms total)
T15C8 000:119 JLINK_GetDebugInfo(0x100 = JLINKARM_ROM_TABLE_ADDR_INDEX) -- Value=0xE00FF000  returns 0x00 (0000ms, 0119ms total)
T15C8 000:119 JLINK_GetDebugInfo(0x101 = JLINKARM_DEBUG_INFO_ETM_ADDR_INDEX) -- Value=0x00000000  returns 0x00 (0000ms, 0119ms total)
T15C8 000:119 JLINK_ReadMemEx(0xE0041FF0, 0x0010 Bytes, ..., Flags = 0x02000004) -- CPU_ReadMem(16 bytes @ 0xE0041FF0) - Data: 00 00 00 00 00 00 00 00 00 00 00 00 00 00 00 00  returns 0x10 (0001ms, 0120ms total)
T15C8 000:120 JLINK_GetDebugInfo(0x102 = JLINKARM_DEBUG_INFO_MTB_ADDR_INDEX) -- Value=0x00000000  returns 0x00 (0000ms, 0120ms total)
T15C8 000:120 JLINK_GetDebugInfo(0x103 = JLINKARM_DEBUG_INFO_TPIU_ADDR_INDEX) -- Value=0xE0040000  returns 0x00 (0000ms, 0120ms total)
T15C8 000:120 JLINK_GetDebugInfo(0x104 = JLINKARM_DEBUG_INFO_ITM_ADDR_INDEX) -- Value=0xE0000000  returns 0x00 (0000ms, 0120ms total)
T15C8 000:120 JLINK_GetDebugInfo(0x105 = JLINKARM_DEBUG_INFO_DWT_ADDR_INDEX) -- Value=0xE0001000  returns 0x00 (0000ms, 0120ms total)
T15C8 000:120 JLINK_GetDebugInfo(0x106 = JLINKARM_DEBUG_INFO_FPB_ADDR_INDEX) -- Value=0xE0002000  returns 0x00 (0000ms, 0120ms total)
T15C8 000:120 JLINK_GetDebugInfo(0x107 = JLINKARM_DEBUG_INFO_NVIC_ADDR_INDEX) -- Value=0xE000E000  returns 0x00 (0000ms, 0120ms total)
T15C8 000:120 JLINK_GetDebugInfo(0x10C = JLINKARM_DEBUG_INFO_DBG_ADDR_INDEX) -- Value=0xE000EDF0  returns 0x00 (0000ms, 0120ms total)
T15C8 000:120 JLINK_ReadMemU32(0xE000EF40, 0x0001 Items, ...) -- CPU_ReadMem(4 bytes @ 0xE000EF40) - Data: 21 00 11 10  returns 0x01 (0000ms, 0120ms total)
T15C8 000:120 JLINK_ReadMemU32(0xE000EF44, 0x0001 Items, ...) -- CPU_ReadMem(4 bytes @ 0xE000EF44) - Data: 11 00 00 11  returns 0x01 (0001ms, 0121ms total)
T15C8 000:121 JLINK_ReadMemU32(0xE000ED00, 0x0001 Items, ...) -- CPU_ReadMem(4 bytes @ 0xE000ED00) - Data: 41 C2 0F 41  returns 0x01 (0000ms, 0121ms total)
T15C8 000:121 JLINK_GetDebugInfo(0x10F = JLINKARM_DEBUG_INFO_HAS_CORTEX_M_SECURITY_EXT_INDEX) -- Value=0x00000000  returns 0x00 (0000ms, 0121ms total)
T15C8 000:121 JLINK_SetResetType(JLINKARM_CM3_RESET_TYPE_NORMAL)  returns JLINKARM_CM3_RESET_TYPE_NORMAL (0000ms, 0121ms total)
T15C8 000:121 JLINK_Reset() -- CPU is running -- CPU_WriteMem(4 bytes @ 0xE000EDF0) -- CPU is running -- CPU_WriteMem(4 bytes @ 0xE000EDFC) >0x35 TIF>Setting AIRCR.SYSRESETREQ -- CPU is running -- CPU_WriteMem(4 bytes @ 0xE000ED0C) >0x0D TIF> >0x28 TIF> -- CPU_ReadMem(4 bytes @ 0xE000ED0C) -- CPU_ReadMem(4 bytes @ 0xE000EDF0) -- CPU_ReadMem(4 bytes @ 0xE000EDF0) -- CPU_ReadMem(4 bytes @ 0xE000EDF0) -- CPU is running -- CPU_WriteMem(4 bytes @ 0xE000EDF0) -- CPU is running
 -- CPU_WriteMem(4 bytes @ 0xE000EDFC) -- CPU_ReadMem(4 bytes @ 0xE000EDF0) -- CPU_WriteMem(4 bytes @ 0xE0002000) -- CPU_ReadMem(4 bytes @ 0xE000EDFC) -- CPU_ReadMem(4 bytes @ 0xE0001000) (0065ms, 0186ms total)
T15C8 000:187 JLINK_ReadReg(R15 (PC))  returns 0x000000C0 (0000ms, 0186ms total)
T15C8 000:187 JLINK_ReadReg(XPSR)  returns 0x01000000 (0000ms, 0186ms total)
T15C8 000:187 JLINK_Halt()  returns 0x00 (0000ms, 0186ms total)
T15C8 000:187 JLINK_ReadMemU32(0xE000EDF0, 0x0001 Items, ...) -- CPU_ReadMem(4 bytes @ 0xE000EDF0) - Data: 03 00 03 00  returns 0x01 (0000ms, 0186ms total)
T15C8 000:187 JLINK_WriteU32(0xE000EDF0, 0xA05F0003) -- CPU_WriteMem(4 bytes @ 0xE000EDF0)  returns 0x00 (0000ms, 0186ms total)
T15C8 000:187 JLINK_WriteU32(0xE000EDFC, 0x01000000) -- CPU_WriteMem(4 bytes @ 0xE000EDFC)  returns 0x00 (0001ms, 0187ms total)
T15C8 000:188 JLINK_GetHWStatus(...)  returns 0x00 (0000ms, 0187ms total)
T15C8 000:188 JLINK_GetNumBPUnits(Type = 0xFFFFFF00)  returns 0x06 (0000ms, 0187ms total)
T15C8 000:188 JLINK_GetNumBPUnits(Type = 0xF0)  returns 0x2000 (0000ms, 0187ms total)
T15C8 000:188 JLINK_GetNumWPUnits()  returns 0x04 (0000ms, 0187ms total)
T15C8 000:188 JLINK_GetSpeed()  returns 0xA6B (0000ms, 0187ms total)
T15C8 000:188 JLINK_ReadMemU32(0xE000E004, 0x0001 Items, ...) -- CPU_ReadMem(4 bytes @ 0xE000E004) - Data: 00 00 00 00  returns 0x01 (0001ms, 0188ms total)
T15C8 000:189 JLINK_ReadMemU32(0xE000E004, 0x0001 Items, ...) -- CPU_ReadMem(4 bytes @ 0xE000E004) - Data: 00 00 00 00  returns 0x01 (0000ms, 0188ms total)
T15C8 000:189 JLINK_WriteMemEx(0xE0001000, 0x001C Bytes, ..., Flags = 0x02000004) - Data: 01 00 00 00 00 00 00 00 00 00 00 00 00 00 00 00 ... -- CPU_WriteMem(28 bytes @ 0xE0001000)  returns 0x1C (0001ms, 0189ms total)
T15C8 000:190 JLINK_ReadReg(R15 (PC))  returns 0x000000C0 (0000ms, 0189ms total)
T15C8 000:190 JLINK_ReadReg(XPSR)  returns 0x01000000 (0000ms, 0189ms total)
T15C8 000:193 JLINK_SWO_Control(JLINKARM_SWO_CMD_GET_SPEED_INFO, ...)  returns 0x00 (0001ms, 0190ms total)
T15C8 000:194 JLINK_SWO_Control(JLINKARM_SWO_CMD_STOP, ...)  returns 0x00 (0000ms, 0190ms total)
T15C8 000:194 JLINK_SWO_Control(JLINKARM_SWO_CMD_START, ...) -- UART -- 1000000bps  returns 0x00 (0001ms, 0191ms total)
T15C8 000:195 JLINK_WriteU32(0xE0040004, 0x00000001) -- CPU_WriteMem(4 bytes @ 0xE0040004)  returns 0x00 (0000ms, 0191ms total)
T15C8 000:196 JLINK_WriteU32(0xE0040010, 0x00000002)  returns 0x00 (0000ms, 0191ms total)
T15C8 000:196 JLINK_WriteU32(0xE00400F0, 0x00000002)  returns 0x00 (0000ms, 0191ms total)
T15C8 000:196 JLINK_WriteU32(0xE0040304, 0x00000000)  returns 0x00 (0000ms, 0191ms total)
T15C8 000:196 JLINK_WriteU32(0xE0000FB0, 0xC5ACCE55) -- CPU_WriteMem(4 bytes @ 0xE0000FB0)  returns 0x00 (0000ms, 0191ms total)
T15C8 000:196 JLINK_WriteU32(0xE0000E80, 0x0001000D)  returns 0x00 (0000ms, 0191ms total)
T15C8 000:196 JLINK_WriteU32(0xE0000E00, 0x00000001)  returns 0x00 (0000ms, 0191ms total)
T15C8 000:196 JLINK_WriteU32(0xE0000E40, 0x00000000)  returns 0x00 (0000ms, 0191ms total)
T15C8 000:196 JLINK_WriteU32(0xE0001000, 0x0000061F)  returns 0x00 (0000ms, 0191ms total)
T15C8 001:709 JLINK_ReadReg(R0)  returns 0x00000000 (0000ms, 0191ms total)
T15C8 001:709 JLINK_ReadReg(R1)  returns 0x00000000 (0000ms, 0191ms total)
T15C8 001:709 JLINK_ReadReg(R2)  returns 0x00000000 (0000ms, 0191ms total)
T15C8 001:709 JLINK_ReadReg(R3)  returns 0x00000000 (0000ms, 0191ms total)
T15C8 001:709 JLINK_ReadReg(R4)  returns 0x00000000 (0000ms, 0191ms total)
T15C8 001:709 JLINK_ReadReg(R5)  returns 0x00000000 (0000ms, 0191ms total)
T15C8 001:709 JLINK_ReadReg(R6)  returns 0x00000000 (0000ms, 0191ms total)
T15C8 001:709 JLINK_ReadReg(R7)  returns 0x00000000 (0000ms, 0191ms total)
T15C8 001:709 JLINK_ReadReg(R8)  returns 0x00000000 (0000ms, 0191ms total)
T15C8 001:709 JLINK_ReadReg(R9)  returns 0x00000000 (0000ms, 0191ms total)
T15C8 001:709 JLINK_ReadReg(R10)  returns 0x00000000 (0000ms, 0191ms total)
T15C8 001:709 JLINK_ReadReg(R11)  returns 0x00000000 (0000ms, 0191ms total)
T15C8 001:709 JLINK_ReadReg(R12)  returns 0x00000000 (0000ms, 0191ms total)
T15C8 001:709 JLINK_ReadReg(R13 (SP))  returns 0x100014D8 (0000ms, 0191ms total)
T15C8 001:709 JLINK_ReadReg(R14)  returns 0xFFFFFFFF (0000ms, 0191ms total)
T15C8 001:709 JLINK_ReadReg(R15 (PC))  returns 0x000000C0 (0000ms, 0191ms total)
T15C8 001:709 JLINK_ReadReg(XPSR)  returns 0x01000000 (0000ms, 0191ms total)
T15C8 001:709 JLINK_ReadReg(MSP)  returns 0x100014D8 (0000ms, 0191ms total)
T15C8 001:709 JLINK_ReadReg(PSP)  returns 0x00000000 (0000ms, 0191ms total)
T15C8 001:709 JLINK_ReadReg(CFBP)  returns 0x00000000 (0000ms, 0191ms total)
T15C8 001:709 JLINK_ReadReg(FPSCR)  returns 0x00000000 (0005ms, 0196ms total)
T15C8 001:714 JLINK_ReadReg(FPS0)  returns 0x00000000 (0000ms, 0196ms total)
T15C8 001:714 JLINK_ReadReg(FPS1)  returns 0x00000000 (0000ms, 0196ms total)
T15C8 001:714 JLINK_ReadReg(FPS2)  returns 0x00000000 (0000ms, 0196ms total)
T15C8 001:714 JLINK_ReadReg(FPS3)  returns 0x00000000 (0000ms, 0196ms total)
T15C8 001:714 JLINK_ReadReg(FPS4)  returns 0x00000000 (0000ms, 0196ms total)
T15C8 001:714 JLINK_ReadReg(FPS5)  returns 0x00000000 (0000ms, 0196ms total)
T15C8 001:714 JLINK_ReadReg(FPS6)  returns 0x00000000 (0000ms, 0196ms total)
T15C8 001:714 JLINK_ReadReg(FPS7)  returns 0x00000000 (0000ms, 0196ms total)
T15C8 001:714 JLINK_ReadReg(FPS8)  returns 0x00000000 (0000ms, 0196ms total)
T15C8 001:714 JLINK_ReadReg(FPS9)  returns 0x00000000 (0000ms, 0196ms total)
T15C8 001:714 JLINK_ReadReg(FPS10)  returns 0x00000000 (0000ms, 0196ms total)
T15C8 001:714 JLINK_ReadReg(FPS11)  returns 0x00000000 (0000ms, 0196ms total)
T15C8 001:714 JLINK_ReadReg(FPS12)  returns 0x00000000 (0000ms, 0196ms total)
T15C8 001:714 JLINK_ReadReg(FPS13)  returns 0x00000000 (0000ms, 0196ms total)
T15C8 001:714 JLINK_ReadReg(FPS14)  returns 0x00000000 (0000ms, 0196ms total)
T15C8 001:714 JLINK_ReadReg(FPS15)  returns 0x00000000 (0000ms, 0196ms total)
T15C8 001:714 JLINK_ReadReg(FPS16)  returns 0x00000000 (0001ms, 0197ms total)
T15C8 001:715 JLINK_ReadReg(FPS17)  returns 0x00000000 (0000ms, 0197ms total)
T15C8 001:715 JLINK_ReadReg(FPS18)  returns 0x00000000 (0000ms, 0197ms total)
T15C8 001:715 JLINK_ReadReg(FPS19)  returns 0x00000000 (0000ms, 0197ms total)
T15C8 001:715 JLINK_ReadReg(FPS20)  returns 0x00000000 (0000ms, 0197ms total)
T15C8 001:715 JLINK_ReadReg(FPS21)  returns 0x00000000 (0000ms, 0197ms total)
T15C8 001:715 JLINK_ReadReg(FPS22)  returns 0x00000000 (0000ms, 0197ms total)
T15C8 001:715 JLINK_ReadReg(FPS23)  returns 0x00000000 (0000ms, 0197ms total)
T15C8 001:715 JLINK_ReadReg(FPS24)  returns 0x00000000 (0000ms, 0197ms total)
T15C8 001:715 JLINK_ReadReg(FPS25)  returns 0x00000000 (0000ms, 0197ms total)
T15C8 001:715 JLINK_ReadReg(FPS26)  returns 0x00000000 (0000ms, 0197ms total)
T15C8 001:715 JLINK_ReadReg(FPS27)  returns 0x00000000 (0000ms, 0197ms total)
T15C8 001:715 JLINK_ReadReg(FPS28)  returns 0x00000000 (0000ms, 0197ms total)
T15C8 001:715 JLINK_ReadReg(FPS29)  returns 0x00000000 (0000ms, 0197ms total)
T15C8 001:715 JLINK_ReadReg(FPS30)  returns 0x00000000 (0000ms, 0197ms total)
T15C8 001:715 JLINK_ReadReg(FPS31)  returns 0x00000000 (0000ms, 0197ms total)
T15C8 001:788 JLINK_WriteReg(R13 (SP), 0x100014D8)  returns 0x00 (0000ms, 0197ms total)
T15C8 001:788 JLINK_ReadReg(R0)  returns 0x00000000 (0000ms, 0197ms total)
T15C8 001:788 JLINK_ReadReg(R1)  returns 0x00000000 (0000ms, 0197ms total)
T15C8 001:788 JLINK_ReadReg(R2)  returns 0x00000000 (0000ms, 0197ms total)
T15C8 001:788 JLINK_ReadReg(R3)  returns 0x00000000 (0000ms, 0197ms total)
T15C8 001:788 JLINK_ReadReg(R4)  returns 0x00000000 (0000ms, 0197ms total)
T15C8 001:788 JLINK_ReadReg(R5)  returns 0x00000000 (0000ms, 0197ms total)
T15C8 001:788 JLINK_ReadReg(R6)  returns 0x00000000 (0000ms, 0197ms total)
T15C8 001:788 JLINK_ReadReg(R7)  returns 0x00000000 (0000ms, 0197ms total)
T15C8 001:788 JLINK_ReadReg(R8)  returns 0x00000000 (0000ms, 0197ms total)
T15C8 001:788 JLINK_ReadReg(R9)  returns 0x00000000 (0000ms, 0197ms total)
T15C8 001:788 JLINK_ReadReg(R10)  returns 0x00000000 (0000ms, 0197ms total)
T15C8 001:788 JLINK_ReadReg(R11)  returns 0x00000000 (0000ms, 0197ms total)
T15C8 001:788 JLINK_ReadReg(R12)  returns 0x00000000 (0000ms, 0197ms total)
T15C8 001:788 JLINK_ReadReg(R13 (SP))  returns 0x100014D8 (0000ms, 0197ms total)
T15C8 001:788 JLINK_ReadReg(R14)  returns 0xFFFFFFFF (0000ms, 0197ms total)
T15C8 001:788 JLINK_ReadReg(R15 (PC))  returns 0x000000C0 (0000ms, 0197ms total)
T15C8 001:788 JLINK_ReadReg(XPSR)  returns 0x01000000 (0000ms, 0197ms total)
T15C8 001:788 JLINK_ReadReg(MSP)  returns 0x100014D8 (0000ms, 0197ms total)
T15C8 001:788 JLINK_ReadReg(PSP)  returns 0x00000000 (0000ms, 0197ms total)
T15C8 001:788 JLINK_ReadReg(CFBP)  returns 0x00000000 (0000ms, 0197ms total)
T15C8 001:788 JLINK_ReadReg(FPSCR)  returns 0x00000000 (0000ms, 0197ms total)
T15C8 001:789 JLINK_ReadReg(FPS0)  returns 0x00000000 (0000ms, 0198ms total)
T15C8 001:789 JLINK_ReadReg(FPS1)  returns 0x00000000 (0000ms, 0198ms total)
T15C8 001:789 JLINK_ReadReg(FPS2)  returns 0x00000000 (0000ms, 0198ms total)
T15C8 001:789 JLINK_ReadReg(FPS3)  returns 0x00000000 (0000ms, 0198ms total)
T15C8 001:789 JLINK_ReadReg(FPS4)  returns 0x00000000 (0000ms, 0198ms total)
T15C8 001:789 JLINK_ReadReg(FPS5)  returns 0x00000000 (0000ms, 0198ms total)
T15C8 001:789 JLINK_ReadReg(FPS6)  returns 0x00000000 (0000ms, 0198ms total)
T15C8 001:789 JLINK_ReadReg(FPS7)  returns 0x00000000 (0000ms, 0198ms total)
T15C8 001:789 JLINK_ReadReg(FPS8)  returns 0x00000000 (0000ms, 0198ms total)
T15C8 001:789 JLINK_ReadReg(FPS9)  returns 0x00000000 (0000ms, 0198ms total)
T15C8 001:789 JLINK_ReadReg(FPS10)  returns 0x00000000 (0000ms, 0198ms total)
T15C8 001:789 JLINK_ReadReg(FPS11)  returns 0x00000000 (0000ms, 0198ms total)
T15C8 001:789 JLINK_ReadReg(FPS12)  returns 0x00000000 (0000ms, 0198ms total)
T15C8 001:789 JLINK_ReadReg(FPS13)  returns 0x00000000 (0000ms, 0198ms total)
T15C8 001:789 JLINK_ReadReg(FPS14)  returns 0x00000000 (0000ms, 0198ms total)
T15C8 001:789 JLINK_ReadReg(FPS15)  returns 0x00000000 (0000ms, 0198ms total)
T15C8 001:789 JLINK_ReadReg(FPS16)  returns 0x00000000 (0000ms, 0198ms total)
T15C8 001:789 JLINK_ReadReg(FPS17)  returns 0x00000000 (0000ms, 0198ms total)
T15C8 001:789 JLINK_ReadReg(FPS18)  returns 0x00000000 (0000ms, 0198ms total)
T15C8 001:789 JLINK_ReadReg(FPS19)  returns 0x00000000 (0000ms, 0198ms total)
T15C8 001:789 JLINK_ReadReg(FPS20)  returns 0x00000000 (0000ms, 0198ms total)
T15C8 001:789 JLINK_ReadReg(FPS21)  returns 0x00000000 (0000ms, 0198ms total)
T15C8 001:789 JLINK_ReadReg(FPS22)  returns 0x00000000 (0000ms, 0198ms total)
T15C8 001:789 JLINK_ReadReg(FPS23)  returns 0x00000000 (0000ms, 0198ms total)
T15C8 001:789 JLINK_ReadReg(FPS24)  returns 0x00000000 (0000ms, 0198ms total)
T15C8 001:789 JLINK_ReadReg(FPS25)  returns 0x00000000 (0000ms, 0198ms total)
T15C8 001:789 JLINK_ReadReg(FPS26)  returns 0x00000000 (0000ms, 0198ms total)
T15C8 001:789 JLINK_ReadReg(FPS27)  returns 0x00000000 (0000ms, 0198ms total)
T15C8 001:789 JLINK_ReadReg(FPS28)  returns 0x00000000 (0000ms, 0198ms total)
T15C8 001:789 JLINK_ReadReg(FPS29)  returns 0x00000000 (0000ms, 0198ms total)
T15C8 001:789 JLINK_ReadReg(FPS30)  returns 0x00000000 (0000ms, 0198ms total)
T15C8 001:789 JLINK_ReadReg(FPS31)  returns 0x00000000 (0000ms, 0198ms total)
T15C8 001:789 JLINK_WriteReg(R15 (PC), 0x000000C0)  returns 0x00 (0000ms, 0198ms total)
T15C8 001:790 JLINK_ReadReg(R0)  returns 0x00000000 (0000ms, 0198ms total)
T15C8 001:790 JLINK_ReadReg(R1)  returns 0x00000000 (0000ms, 0198ms total)
T15C8 001:790 JLINK_ReadReg(R2)  returns 0x00000000 (0000ms, 0198ms total)
T15C8 001:790 JLINK_ReadReg(R3)  returns 0x00000000 (0000ms, 0198ms total)
T15C8 001:790 JLINK_ReadReg(R4)  returns 0x00000000 (0000ms, 0198ms total)
T15C8 001:790 JLINK_ReadReg(R5)  returns 0x00000000 (0000ms, 0198ms total)
T15C8 001:790 JLINK_ReadReg(R6)  returns 0x00000000 (0000ms, 0198ms total)
T15C8 001:790 JLINK_ReadReg(R7)  returns 0x00000000 (0000ms, 0198ms total)
T15C8 001:790 JLINK_ReadReg(R8)  returns 0x00000000 (0000ms, 0198ms total)
T15C8 001:790 JLINK_ReadReg(R9)  returns 0x00000000 (0000ms, 0198ms total)
T15C8 001:790 JLINK_ReadReg(R10)  returns 0x00000000 (0000ms, 0198ms total)
T15C8 001:790 JLINK_ReadReg(R11)  returns 0x00000000 (0000ms, 0198ms total)
T15C8 001:790 JLINK_ReadReg(R12)  returns 0x00000000 (0000ms, 0198ms total)
T15C8 001:790 JLINK_ReadReg(R13 (SP))  returns 0x100014D8 (0000ms, 0198ms total)
T15C8 001:790 JLINK_ReadReg(R14)  returns 0xFFFFFFFF (0000ms, 0198ms total)
T15C8 001:790 JLINK_ReadReg(R15 (PC))  returns 0x000000C0 (0000ms, 0198ms total)
T15C8 001:790 JLINK_ReadReg(XPSR)  returns 0x01000000 (0000ms, 0198ms total)
T15C8 001:790 JLINK_ReadReg(MSP)  returns 0x100014D8 (0000ms, 0198ms total)
T15C8 001:790 JLINK_ReadReg(PSP)  returns 0x00000000 (0000ms, 0198ms total)
T15C8 001:790 JLINK_ReadReg(CFBP)  returns 0x00000000 (0000ms, 0198ms total)
T15C8 001:790 JLINK_ReadReg(FPSCR)  returns 0x00000000 (0000ms, 0198ms total)
T15C8 001:790 JLINK_ReadReg(FPS0)  returns 0x00000000 (0000ms, 0198ms total)
T15C8 001:790 JLINK_ReadReg(FPS1)  returns 0x00000000 (0000ms, 0198ms total)
T15C8 001:790 JLINK_ReadReg(FPS2)  returns 0x00000000 (0000ms, 0198ms total)
T15C8 001:790 JLINK_ReadReg(FPS3)  returns 0x00000000 (0000ms, 0198ms total)
T15C8 001:790 JLINK_ReadReg(FPS4)  returns 0x00000000 (0000ms, 0198ms total)
T15C8 001:790 JLINK_ReadReg(FPS5)  returns 0x00000000 (0000ms, 0198ms total)
T15C8 001:790 JLINK_ReadReg(FPS6)  returns 0x00000000 (0000ms, 0198ms total)
T15C8 001:790 JLINK_ReadReg(FPS7)  returns 0x00000000 (0000ms, 0198ms total)
T15C8 001:790 JLINK_ReadReg(FPS8)  returns 0x00000000 (0000ms, 0198ms total)
T15C8 001:790 JLINK_ReadReg(FPS9)  returns 0x00000000 (0000ms, 0198ms total)
T15C8 001:790 JLINK_ReadReg(FPS10)  returns 0x00000000 (0000ms, 0198ms total)
T15C8 001:790 JLINK_ReadReg(FPS11)  returns 0x00000000 (0000ms, 0198ms total)
T15C8 001:790 JLINK_ReadReg(FPS12)  returns 0x00000000 (0000ms, 0198ms total)
T15C8 001:790 JLINK_ReadReg(FPS13)  returns 0x00000000 (0000ms, 0198ms total)
T15C8 001:790 JLINK_ReadReg(FPS14)  returns 0x00000000 (0000ms, 0198ms total)
T15C8 001:790 JLINK_ReadReg(FPS15)  returns 0x00000000 (0000ms, 0198ms total)
T15C8 001:790 JLINK_ReadReg(FPS16)  returns 0x00000000 (0000ms, 0198ms total)
T15C8 001:791 JLINK_ReadReg(FPS17)  returns 0x00000000 (0000ms, 0199ms total)
T15C8 001:791 JLINK_ReadReg(FPS18)  returns 0x00000000 (0000ms, 0199ms total)
T15C8 001:791 JLINK_ReadReg(FPS19)  returns 0x00000000 (0000ms, 0199ms total)
T15C8 001:791 JLINK_ReadReg(FPS20)  returns 0x00000000 (0000ms, 0199ms total)
T15C8 001:791 JLINK_ReadReg(FPS21)  returns 0x00000000 (0000ms, 0199ms total)
T15C8 001:791 JLINK_ReadReg(FPS22)  returns 0x00000000 (0000ms, 0199ms total)
T15C8 001:791 JLINK_ReadReg(FPS23)  returns 0x00000000 (0000ms, 0199ms total)
T15C8 001:791 JLINK_ReadReg(FPS24)  returns 0x00000000 (0000ms, 0199ms total)
T15C8 001:791 JLINK_ReadReg(FPS25)  returns 0x00000000 (0000ms, 0199ms total)
T15C8 001:791 JLINK_ReadReg(FPS26)  returns 0x00000000 (0000ms, 0199ms total)
T15C8 001:791 JLINK_ReadReg(FPS27)  returns 0x00000000 (0000ms, 0199ms total)
T15C8 001:791 JLINK_ReadReg(FPS28)  returns 0x00000000 (0000ms, 0199ms total)
T15C8 001:791 JLINK_ReadReg(FPS29)  returns 0x00000000 (0000ms, 0199ms total)
T15C8 001:791 JLINK_ReadReg(FPS30)  returns 0x00000000 (0000ms, 0199ms total)
T15C8 001:791 JLINK_ReadReg(FPS31)  returns 0x00000000 (0000ms, 0199ms total)
T15C8 001:791 JLINK_WriteMemEx(0xE000ED08, 0x0004 Bytes, ..., Flags = 0x02000000) - Data: 00 00 00 00 -- CPU_WriteMem(4 bytes @ 0xE000ED08)  returns 0x04 (0001ms, 0200ms total)
T3614 001:812 JLINK_ReadMemEx(0x000000C0, 0x0002 Bytes, ..., Flags = 0x02000000) -- CPU_ReadMem(64 bytes @ 0x000000C0) -- Updating C cache (64 bytes @ 0x000000C0) -- Read from C cache (2 bytes @ 0x000000C0) - Data: 4E F6  returns 0x02 (0001ms, 0201ms total)
T3614 001:813 JLINK_SetBPEx(Addr = 0x0000521C, Type = 0xFFFFFFF2)  returns 0x00000001 (0000ms, 0201ms total)
T3614 001:813 JLINK_SWO_Control(JLINKARM_SWO_CMD_GET_NUM_BYTES, ...)  returns 0x00 (0000ms, 0201ms total)
T3614 001:813 JLINK_Go() -- CPU_WriteMem(4 bytes @ 0xE0002000) -- CPU_WriteMem(4 bytes @ 0xE0001000) -- CPU_ReadMem(4 bytes @ 0xE0001000) -- CPU_WriteMem(4 bytes @ 0xE0000E00) -- CPU_WriteMem(4 bytes @ 0xE0000E40) -- CPU_WriteMem(4 bytes @ 0xE0000E80) -- CPU_WriteMem(4 bytes @ 0xE0002008) -- CPU_WriteMem(4 bytes @ 0xE000200C) -- CPU_WriteMem(4 bytes @ 0xE0002010) -- CPU_WriteMem(4 bytes @ 0xE0002014) -- CPU_WriteMem(4 bytes @ 0xE0002018) -- CPU_WriteMem(4 bytes @ 0xE000201C)
 -- CPU_WriteMem(4 bytes @ 0xE0040010) -- CPU_WriteMem(4 bytes @ 0xE00400F0) -- CPU_WriteMem(4 bytes @ 0xE0040304) -- CPU_WriteMem(4 bytes @ 0xE0001004) (0005ms, 0206ms total)
T3614 001:919 JLINK_SWO_Read(..., Offset = 0x00, NumBytes = 0x400000) - Data:  NumBytesRead = 0x00 (0000ms, 0206ms total)
T3614 001:921 JLINK_SWO_Control(JLINKARM_SWO_CMD_FLUSH, ...)  returns 0x00 (0000ms, 0206ms total)
T3614 001:921 JLINK_IsHalted()  returns TRUE (0002ms, 0208ms total)
T3614 001:923 JLINK_Halt()  returns 0x00 (0000ms, 0206ms total)
T3614 001:923 JLINK_IsHalted()  returns TRUE (0000ms, 0206ms total)
T3614 001:923 JLINK_IsHalted()  returns TRUE (0000ms, 0206ms total)
T3614 001:924 JLINK_IsHalted()  returns TRUE (0000ms, 0206ms total)
T3614 001:924 JLINK_ReadReg(R15 (PC))  returns 0x0000521C (0000ms, 0206ms total)
T3614 001:924 JLINK_ReadReg(XPSR)  returns 0x21000000 (0000ms, 0206ms total)
T3614 001:924 JLINK_SWO_Read(..., Offset = 0x00, NumBytes = 0x400000) - Data:  NumBytesRead = 0x00 (0000ms, 0206ms total)
T3614 001:926 JLINK_SWO_Control(JLINKARM_SWO_CMD_FLUSH, ...)  returns 0x00 (0000ms, 0206ms total)
T3614 001:926 JLINK_ClrBPEx(BPHandle = 0x00000001)  returns 0x00 (0000ms, 0206ms total)
T3614 001:926 JLINK_ReadMemU32(0xE000ED30, 0x0001 Items, ...) -- CPU_ReadMem(4 bytes @ 0xE000ED30) - Data: 02 00 00 00  returns 0x01 (0000ms, 0206ms total)
T3614 001:926 JLINK_ReadMemU32(0xE0001028, 0x0001 Items, ...) -- CPU_ReadMem(4 bytes @ 0xE0001028) - Data: 00 00 00 00  returns 0x01 (0000ms, 0206ms total)
T3614 001:926 JLINK_ReadMemU32(0xE0001038, 0x0001 Items, ...) -- CPU_ReadMem(4 bytes @ 0xE0001038) - Data: 00 02 00 00  returns 0x01 (0001ms, 0207ms total)
T3614 001:927 JLINK_ReadMemU32(0xE0001048, 0x0001 Items, ...) -- CPU_ReadMem(4 bytes @ 0xE0001048) - Data: 00 00 00 00  returns 0x01 (0000ms, 0207ms total)
T3614 001:927 JLINK_ReadMemU32(0xE0001058, 0x0001 Items, ...) -- CPU_ReadMem(4 bytes @ 0xE0001058) - Data: 00 00 00 00  returns 0x01 (0000ms, 0207ms total)
T3614 001:928 JLINK_WriteMemEx(0x40020250, 0x0004 Bytes, ..., Flags = 0x02000000) - Data: 01 02 00 00 -- CPU_WriteMem(4 bytes @ 0x40020250)  returns 0x04 (0000ms, 0207ms total)
T3614 001:928 JLINK_ReadReg(R0)  returns 0x100004D8 (0000ms, 0207ms total)
T3614 001:928 JLINK_ReadReg(R1)  returns 0x100004D8 (0000ms, 0207ms total)
T3614 001:928 JLINK_ReadReg(R2)  returns 0x100004D8 (0000ms, 0207ms total)
T3614 001:928 JLINK_ReadReg(R3)  returns 0x100004D8 (0000ms, 0207ms total)
T3614 001:928 JLINK_ReadReg(R4)  returns 0x00000000 (0000ms, 0207ms total)
T3614 001:928 JLINK_ReadReg(R5)  returns 0x10000478 (0000ms, 0207ms total)
T3614 001:928 JLINK_ReadReg(R6)  returns 0x00000000 (0000ms, 0207ms total)
T3614 001:928 JLINK_ReadReg(R7)  returns 0x00000000 (0000ms, 0207ms total)
T3614 001:928 JLINK_ReadReg(R8)  returns 0x00000000 (0000ms, 0207ms total)
T3614 001:928 JLINK_ReadReg(R9)  returns 0x00000000 (0000ms, 0207ms total)
T3614 001:928 JLINK_ReadReg(R10)  returns 0x000079B0 (0000ms, 0207ms total)
T3614 001:928 JLINK_ReadReg(R11)  returns 0x00000000 (0000ms, 0207ms total)
T3614 001:928 JLINK_ReadReg(R12)  returns 0x100004B8 (0000ms, 0207ms total)
T3614 001:928 JLINK_ReadReg(R13 (SP))  returns 0x100014D8 (0000ms, 0207ms total)
T3614 001:928 JLINK_ReadReg(R14)  returns 0x000001B7 (0001ms, 0208ms total)
T3614 001:929 JLINK_ReadReg(R15 (PC))  returns 0x0000521C (0000ms, 0208ms total)
T3614 001:929 JLINK_ReadReg(XPSR)  returns 0x21000000 (0000ms, 0208ms total)
T3614 001:929 JLINK_ReadReg(MSP)  returns 0x100014D8 (0000ms, 0208ms total)
T3614 001:929 JLINK_ReadReg(PSP)  returns 0x00000000 (0000ms, 0208ms total)
T3614 001:929 JLINK_ReadReg(CFBP)  returns 0x04000000 (0000ms, 0208ms total)
T3614 001:929 JLINK_ReadReg(FPSCR)  returns 0x00000000 (0004ms, 0212ms total)
T3614 001:933 JLINK_ReadReg(FPS0)  returns 0x00000000 (0000ms, 0212ms total)
T3614 001:933 JLINK_ReadReg(FPS1)  returns 0x00000000 (0000ms, 0212ms total)
T3614 001:933 JLINK_ReadReg(FPS2)  returns 0x00000000 (0000ms, 0212ms total)
T3614 001:933 JLINK_ReadReg(FPS3)  returns 0x00000000 (0000ms, 0212ms total)
T3614 001:933 JLINK_ReadReg(FPS4)  returns 0x00000000 (0000ms, 0212ms total)
T3614 001:933 JLINK_ReadReg(FPS5)  returns 0x00000000 (0000ms, 0212ms total)
T3614 001:933 JLINK_ReadReg(FPS6)  returns 0x00000000 (0000ms, 0212ms total)
T3614 001:933 JLINK_ReadReg(FPS7)  returns 0x00000000 (0000ms, 0212ms total)
T3614 001:933 JLINK_ReadReg(FPS8)  returns 0x00000000 (0000ms, 0212ms total)
T3614 001:933 JLINK_ReadReg(FPS9)  returns 0x00000000 (0000ms, 0212ms total)
T3614 001:933 JLINK_ReadReg(FPS10)  returns 0x00000000 (0000ms, 0212ms total)
T3614 001:933 JLINK_ReadReg(FPS11)  returns 0x00000000 (0000ms, 0212ms total)
T3614 001:933 JLINK_ReadReg(FPS12)  returns 0x00000000 (0000ms, 0212ms total)
T3614 001:933 JLINK_ReadReg(FPS13)  returns 0x00000000 (0000ms, 0212ms total)
T3614 001:933 JLINK_ReadReg(FPS14)  returns 0x00000000 (0000ms, 0212ms total)
T3614 001:933 JLINK_ReadReg(FPS15)  returns 0x00000000 (0000ms, 0212ms total)
T3614 001:933 JLINK_ReadReg(FPS16)  returns 0x00000000 (0000ms, 0212ms total)
T3614 001:933 JLINK_ReadReg(FPS17)  returns 0x00000000 (0000ms, 0212ms total)
T3614 001:933 JLINK_ReadReg(FPS18)  returns 0x00000000 (0000ms, 0212ms total)
T3614 001:933 JLINK_ReadReg(FPS19)  returns 0x00000000 (0000ms, 0212ms total)
T3614 001:933 JLINK_ReadReg(FPS20)  returns 0x00000000 (0000ms, 0212ms total)
T3614 001:934 JLINK_ReadReg(FPS21)  returns 0x00000000 (0000ms, 0213ms total)
T3614 001:934 JLINK_ReadReg(FPS22)  returns 0x00000000 (0000ms, 0213ms total)
T3614 001:934 JLINK_ReadReg(FPS23)  returns 0x00000000 (0000ms, 0213ms total)
T3614 001:934 JLINK_ReadReg(FPS24)  returns 0x00000000 (0000ms, 0213ms total)
T3614 001:934 JLINK_ReadReg(FPS25)  returns 0x00000000 (0000ms, 0213ms total)
T3614 001:934 JLINK_ReadReg(FPS26)  returns 0x00000000 (0000ms, 0213ms total)
T3614 001:934 JLINK_ReadReg(FPS27)  returns 0x00000000 (0000ms, 0213ms total)
T3614 001:934 JLINK_ReadReg(FPS28)  returns 0x00000000 (0000ms, 0213ms total)
T3614 001:934 JLINK_ReadReg(FPS29)  returns 0x00000000 (0000ms, 0213ms total)
T3614 001:934 JLINK_ReadReg(FPS30)  returns 0x00000000 (0000ms, 0213ms total)
T3614 001:934 JLINK_ReadReg(FPS31)  returns 0x00000000 (0000ms, 0213ms total)
T15C8 001:941 JLINK_ReadMemEx(0x00000000, 0x0004 Bytes, ..., Flags = 0x02000000) -- CPU_ReadMem(64 bytes @ 0x00000000) -- Updating C cache (64 bytes @ 0x00000000) -- Read from C cache (4 bytes @ 0x00000000) - Data: D8 14 00 10  returns 0x04 (0000ms, 0213ms total)
T15C8 001:942 JLINK_ReadMemU32(0xE0001004, 0x0001 Items, ...) -- CPU_ReadMem(4 bytes @ 0xE0001004) - Data: 89 1B 00 00  returns 0x01 (0001ms, 0214ms total)
T15C8 001:947 JLINK_ReadMemEx(0x0000511C, 0x003C Bytes, ..., Flags = 0x02000000) -- CPU_ReadMem(128 bytes @ 0x00005100) -- Updating C cache (128 bytes @ 0x00005100) -- Read from C cache (60 bytes @ 0x0000511C) - Data: 02 A8 FB F7 0B F9 00 20 0B E0 37 49 49 68 01 EB ...  returns 0x3C (0001ms, 0215ms total)
T15C8 001:948 JLINK_ReadMemEx(0x00005158, 0x003C Bytes, ..., Flags = 0x02000000) -- CPU_ReadMem(64 bytes @ 0x00005180) -- Updating C cache (64 bytes @ 0x00005180) -- Read from C cache (60 bytes @ 0x00005158) - Data: B8 EE 40 0A 30 EE 60 8A 28 48 40 68 90 ED 00 0A ...  returns 0x3C (0001ms, 0216ms total)
T15C8 001:949 JLINK_ReadMemEx(0x00005194, 0x003C Bytes, ..., Flags = 0x02000000) -- CPU_ReadMem(64 bytes @ 0x000051C0) -- Updating C cache (64 bytes @ 0x000051C0) -- Read from C cache (60 bytes @ 0x00005194) - Data: 04 A8 FB F7 6D F9 04 A9 B0 EE 48 0A 1B 48 FB F7 ...  returns 0x3C (0000ms, 0216ms total)
T15C8 001:949 JLINK_ReadMemEx(0x000051D0, 0x003C Bytes, ..., Flags = 0x02000000) -- CPU_ReadMem(64 bytes @ 0x00005200) -- Updating C cache (64 bytes @ 0x00005200) -- Read from C cache (60 bytes @ 0x000051D0) - Data: 0B E0 01 99 01 EB 80 01 91 ED 00 0A 09 49 49 68 ...  returns 0x3C (0001ms, 0217ms total)
T15C8 001:950 JLINK_ReadMemEx(0x00005216, 0x0002 Bytes, ..., Flags = 0x02000000) -- Read from C cache (2 bytes @ 0x00005216) - Data: 00 10  returns 0x02 (0000ms, 0217ms total)
T15C8 001:950 JLINK_ReadMemEx(0x00005218, 0x003C Bytes, ..., Flags = 0x02000000) -- CPU_ReadMem(64 bytes @ 0x00005240) -- Updating C cache (64 bytes @ 0x00005240) -- Read from C cache (60 bytes @ 0x00005218) - Data: 94 00 00 10 08 B5 00 20 FC F7 76 FC 20 48 FC F7 ...  returns 0x3C (0000ms, 0217ms total)
T3614 005:715 JLINK_ReadMemEx(0x0000521C, 0x0002 Bytes, ..., Flags = 0x02000000) -- Read from C cache (2 bytes @ 0x0000521C) - Data: 08 B5  returns 0x02 (0000ms, 0217ms total)
T3614 005:715 JLINK_SWO_Control(JLINKARM_SWO_CMD_GET_NUM_BYTES, ...)  returns 0x00 (0000ms, 0217ms total)
T3614 005:715 JLINK_Step() -- Read from C cache (2 bytes @ 0x0000521C) -- CPU_ReadMem(4 bytes @ 0xE000ED18) -- CPU_WriteMem(4 bytes @ 0xE000ED18) -- CPU_ReadMem(4 bytes @ 0xE000ED18) -- CPU_WriteMem(4 bytes @ 0xE000ED18) -- CPU_WriteMem(8 bytes @ 0x100014D0) -- Simulated  returns 0x00 (0002ms, 0219ms total)
T3614 005:717 JLINK_ReadReg(R15 (PC))  returns 0x0000521E (0000ms, 0219ms total)
T3614 005:717 JLINK_ReadReg(XPSR)  returns 0x21000000 (0001ms, 0220ms total)
T3614 005:718 JLINK_SetBPEx(Addr = 0x0000521C, Type = 0xFFFFFFF2)  returns 0x00000002 (0000ms, 0220ms total)
T3614 005:718 JLINK_SWO_Control(JLINKARM_SWO_CMD_GET_NUM_BYTES, ...)  returns 0x00 (0000ms, 0220ms total)
T3614 005:718 JLINK_Go() -- CPU_WriteMem(4 bytes @ 0xE0002000) -- CPU_ReadMem(4 bytes @ 0xE0001000) -- CPU_WriteMem(4 bytes @ 0xE0001004) (0002ms, 0222ms total)
T3614 005:821 JLINK_SWO_Read(..., Offset = 0x00, NumBytes = 0x400000) - Data: 01 0A 94 80 80 80 00 01 0A 01 0A 01 0A 01 0A 01 ...  NumBytesRead = 0x52 (0000ms, 0222ms total)
T3614 005:822 JLINK_SWO_Control(JLINKARM_SWO_CMD_FLUSH, ...)  returns 0x00 (0000ms, 0222ms total)
T3614 005:848 JLINK_IsHalted()  returns FALSE (0000ms, 0222ms total)
T3614 005:950 JLINK_SWO_Read(..., Offset = 0x00, NumBytes = 0x400000) - Data:  NumBytesRead = 0x00 (0000ms, 0222ms total)
T3614 005:952 JLINK_SWO_Control(JLINKARM_SWO_CMD_FLUSH, ...)  returns 0x00 (0000ms, 0222ms total)
T3614 005:952 JLINK_IsHalted()  returns FALSE (0001ms, 0223ms total)
T3614 006:053 JLINK_SWO_Read(..., Offset = 0x00, NumBytes = 0x400000) - Data:  NumBytesRead = 0x00 (0000ms, 0222ms total)
T3614 006:056 JLINK_SWO_Control(JLINKARM_SWO_CMD_FLUSH, ...)  returns 0x00 (0000ms, 0222ms total)
T3614 006:056 JLINK_IsHalted()  returns FALSE (0001ms, 0223ms total)
T3614 006:158 JLINK_SWO_Read(..., Offset = 0x00, NumBytes = 0x400000) - Data:  NumBytesRead = 0x00 (0000ms, 0222ms total)
T3614 006:160 JLINK_SWO_Control(JLINKARM_SWO_CMD_FLUSH, ...)  returns 0x00 (0000ms, 0222ms total)
T3614 006:160 JLINK_IsHalted()  returns FALSE (0001ms, 0223ms total)
T3614 006:261 JLINK_SWO_Read(..., Offset = 0x00, NumBytes = 0x400000) - Data:  NumBytesRead = 0x00 (0000ms, 0222ms total)
T3614 006:263 JLINK_SWO_Control(JLINKARM_SWO_CMD_FLUSH, ...)  returns 0x00 (0000ms, 0222ms total)
T3614 006:263 JLINK_ReadMemU32(0xE0001004, 0x0001 Items, ...) -- CPU_ReadMem(4 bytes @ 0xE0001004) - Data: A6 A9 8B 01  returns 0x01 (0001ms, 0223ms total)
T3614 006:275 JLINK_IsHalted()  returns FALSE (0000ms, 0223ms total)
T3614 006:376 JLINK_SWO_Read(..., Offset = 0x00, NumBytes = 0x400000) - Data:  NumBytesRead = 0x00 (0000ms, 0223ms total)
T3614 006:378 JLINK_SWO_Control(JLINKARM_SWO_CMD_FLUSH, ...)  returns 0x00 (0000ms, 0223ms total)
T3614 006:378 JLINK_IsHalted()  returns FALSE (0001ms, 0224ms total)
T3614 006:480 JLINK_SWO_Read(..., Offset = 0x00, NumBytes = 0x400000) - Data:  NumBytesRead = 0x00 (0000ms, 0223ms total)
T3614 006:482 JLINK_SWO_Control(JLINKARM_SWO_CMD_FLUSH, ...)  returns 0x00 (0000ms, 0223ms total)
T3614 006:482 JLINK_IsHalted()  returns FALSE (0001ms, 0224ms total)
T3614 006:584 JLINK_SWO_Read(..., Offset = 0x00, NumBytes = 0x400000) - Data:  NumBytesRead = 0x00 (0000ms, 0223ms total)
T3614 006:586 JLINK_SWO_Control(JLINKARM_SWO_CMD_FLUSH, ...)  returns 0x00 (0000ms, 0223ms total)
T3614 006:586 JLINK_IsHalted()  returns FALSE (0000ms, 0223ms total)
T3614 006:687 JLINK_SWO_Read(..., Offset = 0x00, NumBytes = 0x400000) - Data:  NumBytesRead = 0x00 (0000ms, 0223ms total)
T3614 006:689 JLINK_SWO_Control(JLINKARM_SWO_CMD_FLUSH, ...)  returns 0x00 (0000ms, 0223ms total)
T3614 006:689 JLINK_IsHalted()  returns FALSE (0000ms, 0223ms total)
T3614 006:791 JLINK_SWO_Read(..., Offset = 0x00, NumBytes = 0x400000) - Data:  NumBytesRead = 0x00 (0000ms, 0223ms total)
T3614 006:793 JLINK_SWO_Control(JLINKARM_SWO_CMD_FLUSH, ...)  returns 0x00 (0000ms, 0223ms total)
T3614 006:793 JLINK_ReadMemU32(0xE0001004, 0x0001 Items, ...) - Data: A6 A9 8B 01  returns 0x01 (0000ms, 0223ms total)
T3614 006:801 JLINK_IsHalted()  returns FALSE (0001ms, 0224ms total)
T3614 006:902 JLINK_SWO_Read(..., Offset = 0x00, NumBytes = 0x400000) - Data:  NumBytesRead = 0x00 (0000ms, 0223ms total)
T3614 006:904 JLINK_SWO_Control(JLINKARM_SWO_CMD_FLUSH, ...)  returns 0x00 (0000ms, 0223ms total)
T3614 006:904 JLINK_IsHalted()  returns FALSE (0000ms, 0223ms total)
T3614 007:005 JLINK_SWO_Read(..., Offset = 0x00, NumBytes = 0x400000) - Data:  NumBytesRead = 0x00 (0000ms, 0223ms total)
T3614 007:007 JLINK_SWO_Control(JLINKARM_SWO_CMD_FLUSH, ...)  returns 0x00 (0000ms, 0223ms total)
T3614 007:007 JLINK_IsHalted()  returns FALSE (0001ms, 0224ms total)
T3614 007:108 JLINK_SWO_Read(..., Offset = 0x00, NumBytes = 0x400000) - Data:  NumBytesRead = 0x00 (0000ms, 0223ms total)
T3614 007:110 JLINK_SWO_Control(JLINKARM_SWO_CMD_FLUSH, ...)  returns 0x00 (0000ms, 0223ms total)
T3614 007:110 JLINK_IsHalted()  returns FALSE (0001ms, 0224ms total)
T3614 007:212 JLINK_SWO_Read(..., Offset = 0x00, NumBytes = 0x400000) - Data:  NumBytesRead = 0x00 (0000ms, 0223ms total)
T3614 007:214 JLINK_SWO_Control(JLINKARM_SWO_CMD_FLUSH, ...)  returns 0x00 (0000ms, 0223ms total)
T3614 007:214 JLINK_IsHalted()  returns FALSE (0001ms, 0224ms total)
T3614 007:316 JLINK_SWO_Read(..., Offset = 0x00, NumBytes = 0x400000) - Data:  NumBytesRead = 0x00 (0000ms, 0223ms total)
T3614 007:318 JLINK_SWO_Control(JLINKARM_SWO_CMD_FLUSH, ...)  returns 0x00 (0000ms, 0223ms total)
T3614 007:318 JLINK_ReadMemU32(0xE0001004, 0x0001 Items, ...) - Data: A6 A9 8B 01  returns 0x01 (0000ms, 0223ms total)
T3614 007:326 JLINK_IsHalted()  returns FALSE (0001ms, 0224ms total)
T3614 007:427 JLINK_SWO_Read(..., Offset = 0x00, NumBytes = 0x400000) - Data:  NumBytesRead = 0x00 (0000ms, 0224ms total)
T3614 007:429 JLINK_SWO_Control(JLINKARM_SWO_CMD_FLUSH, ...)  returns 0x00 (0000ms, 0224ms total)
T3614 007:429 JLINK_IsHalted()  returns FALSE (0001ms, 0225ms total)
T3614 007:531 JLINK_SWO_Read(..., Offset = 0x00, NumBytes = 0x400000) - Data:  NumBytesRead = 0x00 (0000ms, 0224ms total)
T3614 007:532 JLINK_SWO_Control(JLINKARM_SWO_CMD_FLUSH, ...)  returns 0x00 (0000ms, 0224ms total)
T3614 007:532 JLINK_IsHalted()  returns FALSE (0001ms, 0225ms total)
T3614 007:633 JLINK_SWO_Read(..., Offset = 0x00, NumBytes = 0x400000) - Data:  NumBytesRead = 0x00 (0000ms, 0224ms total)
T3614 007:635 JLINK_SWO_Control(JLINKARM_SWO_CMD_FLUSH, ...)  returns 0x00 (0000ms, 0224ms total)
T3614 007:635 JLINK_IsHalted()  returns FALSE (0001ms, 0225ms total)
T3614 007:736 JLINK_SWO_Read(..., Offset = 0x00, NumBytes = 0x400000) - Data:  NumBytesRead = 0x00 (0000ms, 0224ms total)
T3614 007:738 JLINK_SWO_Control(JLINKARM_SWO_CMD_FLUSH, ...)  returns 0x00 (0000ms, 0224ms total)
T3614 007:738 JLINK_IsHalted()  returns FALSE (0001ms, 0225ms total)
T3614 007:839 JLINK_SWO_Read(..., Offset = 0x00, NumBytes = 0x400000) - Data:  NumBytesRead = 0x00 (0000ms, 0224ms total)
T3614 007:841 JLINK_SWO_Control(JLINKARM_SWO_CMD_FLUSH, ...)  returns 0x00 (0000ms, 0224ms total)
T3614 007:841 JLINK_ReadMemU32(0xE0001004, 0x0001 Items, ...) - Data: A6 A9 8B 01  returns 0x01 (0000ms, 0224ms total)
T3614 007:848 JLINK_IsHalted()  returns FALSE (0001ms, 0225ms total)
T3614 007:950 JLINK_SWO_Read(..., Offset = 0x00, NumBytes = 0x400000) - Data: 01 39 94 80 80 80 00 01 34 01 33 01 39 01 39 01 ...  NumBytesRead = 0x26 (0000ms, 0224ms total)
T3614 007:952 JLINK_SWO_Control(JLINKARM_SWO_CMD_FLUSH, ...)  returns 0x00 (0000ms, 0224ms total)
T3614 007:955 JLINK_IsHalted()  returns FALSE (0001ms, 0225ms total)
T3614 008:057 JLINK_SWO_Read(..., Offset = 0x00, NumBytes = 0x400000) - Data: 01 39 01 34 01 33 01 39 01 34 01 20 01 39 01 34 ...  NumBytesRead = 0x4C (0000ms, 0224ms total)
T3614 008:059 JLINK_SWO_Control(JLINKARM_SWO_CMD_FLUSH, ...)  returns 0x00 (0000ms, 0224ms total)
T3614 008:066 JLINK_IsHalted()  returns FALSE (0000ms, 0224ms total)
T3614 008:167 JLINK_SWO_Read(..., Offset = 0x00, NumBytes = 0x400000) - Data: 01 39 01 34 01 33 01 39 01 33 01 20 01 39 01 34 ...  NumBytesRead = 0x4A (0000ms, 0224ms total)
T3614 008:169 JLINK_SWO_Control(JLINKARM_SWO_CMD_FLUSH, ...)  returns 0x00 (0000ms, 0224ms total)
T3614 008:177 JLINK_IsHalted()  returns FALSE (0001ms, 0225ms total)
T3614 008:280 JLINK_SWO_Read(..., Offset = 0x00, NumBytes = 0x400000) - Data: 01 39 01 34 01 33 01 39 01 32 01 20 01 39 01 34 ...  NumBytesRead = 0x7C (0000ms, 0224ms total)
T3614 008:282 JLINK_SWO_Control(JLINKARM_SWO_CMD_FLUSH, ...)  returns 0x00 (0000ms, 0224ms total)
T3614 008:293 JLINK_IsHalted()  returns FALSE (0001ms, 0225ms total)
T3614 008:396 JLINK_SWO_Read(..., Offset = 0x00, NumBytes = 0x400000) - Data: 01 39 01 34 01 33 01 39 01 32 01 20 01 39 01 34 ...  NumBytesRead = 0x48 (0000ms, 0224ms total)
T3614 008:398 JLINK_SWO_Control(JLINKARM_SWO_CMD_FLUSH, ...)  returns 0x00 (0000ms, 0224ms total)
T3614 008:406 JLINK_ReadMemU32(0xE0001004, 0x0001 Items, ...) - Data: A6 A9 8B 01  returns 0x01 (0000ms, 0224ms total)
T3614 008:418 JLINK_IsHalted()  returns FALSE (0001ms, 0225ms total)
T3614 008:519 JLINK_SWO_Read(..., Offset = 0x00, NumBytes = 0x400000) - Data: 01 39 01 34 01 33 01 39 01 32 01 20 01 39 01 34 ...  NumBytesRead = 0x4C (0000ms, 0224ms total)
T3614 008:521 JLINK_SWO_Control(JLINKARM_SWO_CMD_FLUSH, ...)  returns 0x00 (0000ms, 0224ms total)
T3614 008:529 JLINK_IsHalted()  returns FALSE (0001ms, 0225ms total)
T3614 008:632 JLINK_SWO_Read(..., Offset = 0x00, NumBytes = 0x400000) - Data: 01 39 01 34 01 33 01 38 01 39 01 20 01 39 01 34 ...  NumBytesRead = 0x7C (0000ms, 0224ms total)
T3614 008:634 JLINK_SWO_Control(JLINKARM_SWO_CMD_FLUSH, ...)  returns 0x00 (0000ms, 0224ms total)
T3614 008:644 JLINK_IsHalted()  returns FALSE (0001ms, 0225ms total)
T3614 008:746 JLINK_SWO_Read(..., Offset = 0x00, NumBytes = 0x400000) - Data: 01 39 01 34 01 33 01 38 01 38 01 20 01 39 01 34 ...  NumBytesRead = 0x48 (0000ms, 0224ms total)
T3614 008:747 JLINK_SWO_Control(JLINKARM_SWO_CMD_FLUSH, ...)  returns 0x00 (0000ms, 0224ms total)
T3614 008:766 JLINK_IsHalted()  returns FALSE (0001ms, 0225ms total)
T3614 008:867 JLINK_SWO_Read(..., Offset = 0x00, NumBytes = 0x400000) - Data: 01 39 01 34 01 33 01 38 01 38 01 20 01 39 01 34 ...  NumBytesRead = 0x48 (0000ms, 0224ms total)
T3614 008:869 JLINK_SWO_Control(JLINKARM_SWO_CMD_FLUSH, ...)  returns 0x00 (0000ms, 0224ms total)
T3614 008:876 JLINK_IsHalted()  returns FALSE (0001ms, 0225ms total)
T3614 008:978 JLINK_SWO_Read(..., Offset = 0x00, NumBytes = 0x400000) - Data: 01 39 01 34 01 33 01 38 01 37 01 20 01 39 01 34 ...  NumBytesRead = 0x7C (0000ms, 0224ms total)
T3614 008:980 JLINK_SWO_Control(JLINKARM_SWO_CMD_FLUSH, ...)  returns 0x00 (0000ms, 0224ms total)
T3614 008:991 JLINK_ReadMemU32(0xE0001004, 0x0001 Items, ...) - Data: A6 A9 8B 01  returns 0x01 (0000ms, 0224ms total)
T3614 009:003 JLINK_IsHalted()  returns FALSE (0001ms, 0225ms total)
T3614 009:106 JLINK_SWO_Read(..., Offset = 0x00, NumBytes = 0x400000) - Data: 01 39 01 34 01 33 01 38 01 39 01 20 01 39 01 34 ...  NumBytesRead = 0x4C (0000ms, 0224ms total)
T3614 009:108 JLINK_SWO_Control(JLINKARM_SWO_CMD_FLUSH, ...)  returns 0x00 (0000ms, 0224ms total)
T3614 009:115 JLINK_IsHalted()  returns FALSE (0001ms, 0225ms total)
T3614 009:217 JLINK_SWO_Read(..., Offset = 0x00, NumBytes = 0x400000) - Data: 01 39 01 34 01 33 01 38 01 37 01 20 01 39 01 34 ...  NumBytesRead = 0x40 (0000ms, 0224ms total)
T3614 009:219 JLINK_SWO_Control(JLINKARM_SWO_CMD_FLUSH, ...)  returns 0x00 (0000ms, 0224ms total)
T3614 009:227 JLINK_IsHalted()  returns FALSE (0001ms, 0225ms total)
T3614 009:329 JLINK_SWO_Read(..., Offset = 0x00, NumBytes = 0x400000) - Data: 01 39 01 34 01 33 01 39 01 31 01 20 01 39 01 34 ...  NumBytesRead = 0x7C (0000ms, 0224ms total)
T3614 009:331 JLINK_SWO_Control(JLINKARM_SWO_CMD_FLUSH, ...)  returns 0x00 (0000ms, 0224ms total)
T3614 009:343 JLINK_IsHalted()  returns FALSE (0001ms, 0225ms total)
T3614 009:444 JLINK_SWO_Read(..., Offset = 0x00, NumBytes = 0x400000) - Data: 01 39 01 34 01 33 01 38 01 38 01 20 01 39 01 34 ...  NumBytesRead = 0x4C (0000ms, 0224ms total)
T3614 009:446 JLINK_SWO_Control(JLINKARM_SWO_CMD_FLUSH, ...)  returns 0x00 (0000ms, 0224ms total)
T3614 009:453 JLINK_IsHalted()  returns FALSE (0001ms, 0225ms total)
T3614 009:554 JLINK_SWO_Read(..., Offset = 0x00, NumBytes = 0x400000) - Data: 01 39 01 34 01 33 01 38 01 39 01 20 01 39 01 34 ...  NumBytesRead = 0x4A (0000ms, 0224ms total)
T3614 009:556 JLINK_SWO_Control(JLINKARM_SWO_CMD_FLUSH, ...)  returns 0x00 (0000ms, 0224ms total)
T3614 009:568 JLINK_ReadMemU32(0xE0001004, 0x0001 Items, ...) - Data: A6 A9 8B 01  returns 0x01 (0001ms, 0225ms total)
T3614 009:584 JLINK_IsHalted()  returns FALSE (0000ms, 0225ms total)
T3614 009:686 JLINK_SWO_Read(..., Offset = 0x00, NumBytes = 0x400000) - Data: 01 39 01 34 01 33 01 38 01 36 01 20 01 39 01 34 ...  NumBytesRead = 0x7C (0000ms, 0225ms total)
T3614 009:688 JLINK_SWO_Control(JLINKARM_SWO_CMD_FLUSH, ...)  returns 0x00 (0000ms, 0225ms total)
T3614 009:699 JLINK_IsHalted()  returns FALSE (0000ms, 0225ms total)
T3614 009:800 JLINK_SWO_Read(..., Offset = 0x00, NumBytes = 0x400000) - Data: 01 39 01 34 01 33 01 38 01 37 01 20 01 39 01 34 ...  NumBytesRead = 0x46 (0000ms, 0225ms total)
T3614 009:802 JLINK_SWO_Control(JLINKARM_SWO_CMD_FLUSH, ...)  returns 0x00 (0000ms, 0225ms total)
T3614 009:806 JLINK_IsHalted()  returns FALSE (0001ms, 0226ms total)
T3614 009:907 JLINK_SWO_Read(..., Offset = 0x00, NumBytes = 0x400000) - Data: 01 39 01 34 01 33 01 38 01 37 01 20 01 39 01 34 ...  NumBytesRead = 0x4C (0000ms, 0225ms total)
T3614 009:910 JLINK_SWO_Control(JLINKARM_SWO_CMD_FLUSH, ...)  returns 0x00 (0000ms, 0225ms total)
T3614 009:917 JLINK_IsHalted()  returns FALSE (0001ms, 0226ms total)
T3614 010:018 JLINK_SWO_Read(..., Offset = 0x00, NumBytes = 0x400000) - Data: 01 39 01 34 01 33 01 38 01 35 01 20 01 39 01 34 ...  NumBytesRead = 0x54 (0000ms, 0225ms total)
T3614 010:020 JLINK_SWO_Control(JLINKARM_SWO_CMD_FLUSH, ...)  returns 0x00 (0000ms, 0225ms total)
T3614 010:027 JLINK_IsHalted()  returns FALSE (0001ms, 0226ms total)
T3614 010:129 JLINK_SWO_Read(..., Offset = 0x00, NumBytes = 0x400000) - Data: 01 39 01 34 01 33 01 38 01 38 01 20 01 39 01 34 ...  NumBytesRead = 0x6C (0000ms, 0225ms total)
T3614 010:131 JLINK_SWO_Control(JLINKARM_SWO_CMD_FLUSH, ...)  returns 0x00 (0000ms, 0225ms total)
T3614 010:142 JLINK_ReadMemU32(0xE0001004, 0x0001 Items, ...) - Data: A6 A9 8B 01  returns 0x01 (0000ms, 0225ms total)
T3614 010:154 JLINK_IsHalted()  returns FALSE (0001ms, 0226ms total)
T3614 010:255 JLINK_SWO_Read(..., Offset = 0x00, NumBytes = 0x400000) - Data: 01 39 01 34 01 33 01 38 01 38 01 20 01 39 01 34 ...  NumBytesRead = 0x4C (0000ms, 0225ms total)
T3614 010:257 JLINK_SWO_Control(JLINKARM_SWO_CMD_FLUSH, ...)  returns 0x00 (0000ms, 0225ms total)
T3614 010:264 JLINK_IsHalted()  returns FALSE (0001ms, 0226ms total)
T3614 010:365 JLINK_SWO_Read(..., Offset = 0x00, NumBytes = 0x400000) - Data: 01 39 01 34 01 33 01 38 01 39 01 20 01 39 01 34 ...  NumBytesRead = 0x54 (0000ms, 0225ms total)
T3614 010:367 JLINK_SWO_Control(JLINKARM_SWO_CMD_FLUSH, ...)  returns 0x00 (0000ms, 0225ms total)
T3614 010:378 JLINK_IsHalted()  returns FALSE (0000ms, 0225ms total)
T3614 010:480 JLINK_SWO_Read(..., Offset = 0x00, NumBytes = 0x400000) - Data: 01 39 01 34 01 33 01 38 01 36 01 20 01 39 01 34 ...  NumBytesRead = 0x6E (0000ms, 0225ms total)
T3614 010:482 JLINK_SWO_Control(JLINKARM_SWO_CMD_FLUSH, ...)  returns 0x00 (0000ms, 0225ms total)
T3614 010:497 JLINK_IsHalted()  returns FALSE (0000ms, 0225ms total)
T3614 010:599 JLINK_SWO_Read(..., Offset = 0x00, NumBytes = 0x400000) - Data: 01 39 01 34 01 33 01 38 01 37 01 20 01 39 01 34 ...  NumBytesRead = 0x44 (0000ms, 0225ms total)
T3614 010:601 JLINK_SWO_Control(JLINKARM_SWO_CMD_FLUSH, ...)  returns 0x00 (0000ms, 0225ms total)
T3614 010:611 JLINK_IsHalted()  returns FALSE (0001ms, 0226ms total)
T3614 010:713 JLINK_SWO_Read(..., Offset = 0x00, NumBytes = 0x400000) - Data: 01 39 01 34 01 33 01 38 01 37 01 20 01 39 01 34 ...  NumBytesRead = 0x56 (0000ms, 0225ms total)
T3614 010:715 JLINK_SWO_Control(JLINKARM_SWO_CMD_FLUSH, ...)  returns 0x00 (0000ms, 0225ms total)
T3614 010:722 JLINK_ReadMemU32(0xE0001004, 0x0001 Items, ...) - Data: A6 A9 8B 01  returns 0x01 (0000ms, 0225ms total)
T3614 010:734 JLINK_IsHalted()  returns FALSE (0000ms, 0225ms total)
T3614 010:835 JLINK_SWO_Read(..., Offset = 0x00, NumBytes = 0x400000) - Data: 01 39 01 34 01 33 01 38 01 38 01 20 01 39 01 34 ...  NumBytesRead = 0x70 (0000ms, 0225ms total)
T3614 010:837 JLINK_SWO_Control(JLINKARM_SWO_CMD_FLUSH, ...)  returns 0x00 (0000ms, 0225ms total)
T3614 010:845 JLINK_IsHalted()  returns FALSE (0001ms, 0226ms total)
T3614 010:946 JLINK_SWO_Read(..., Offset = 0x00, NumBytes = 0x400000) - Data: 01 39 01 34 01 33 01 38 01 37 01 20 01 39 01 34 ...  NumBytesRead = 0x3E (0000ms, 0225ms total)
T3614 010:948 JLINK_SWO_Control(JLINKARM_SWO_CMD_FLUSH, ...)  returns 0x00 (0000ms, 0225ms total)
T3614 010:953 JLINK_IsHalted()  returns FALSE (0000ms, 0225ms total)
T3614 011:054 JLINK_SWO_Read(..., Offset = 0x00, NumBytes = 0x400000) - Data: 01 39 01 34 01 33 01 38 01 37 01 20 01 39 01 34 ...  NumBytesRead = 0x54 (0000ms, 0225ms total)
T3614 011:056 JLINK_SWO_Control(JLINKARM_SWO_CMD_FLUSH, ...)  returns 0x00 (0000ms, 0225ms total)
T3614 011:060 JLINK_IsHalted()  returns FALSE (0000ms, 0225ms total)
T3614 011:161 JLINK_SWO_Read(..., Offset = 0x00, NumBytes = 0x400000) - Data: 01 39 01 34 01 33 01 38 01 35 01 20 01 39 01 34 ...  NumBytesRead = 0x4A (0000ms, 0225ms total)
T3614 011:163 JLINK_SWO_Control(JLINKARM_SWO_CMD_FLUSH, ...)  returns 0x00 (0000ms, 0225ms total)
T3614 011:172 JLINK_IsHalted()  returns FALSE (0000ms, 0225ms total)
T3614 011:274 JLINK_SWO_Read(..., Offset = 0x00, NumBytes = 0x400000) - Data: 01 39 01 34 01 33 01 38 01 36 01 20 01 39 01 34 ...  NumBytesRead = 0x4C (0000ms, 0225ms total)
